#  HZ   S   DB   R     50.00 
! Rohde & Schwarz ZVA24 4Ports - Version 2.90 - 1145.1110k26 SN: 100216
! Date: 2012-03-15 14:43:22
! Measurements: S11 S21 S12 S22 
! 
 1.000000000000000E7    -7.059597703342484E-1   2.915208574918289E-1  -4.610557392894050E1   1.322199235033846E1  -4.677675495629835E1   7.909701940235738  -1.044797818418581  -1.884063389447647E-1  
 2.000000000000000E7    -7.878201622853474E-1   4.805352523860073E-1  -4.533455436948903E1   2.567244728900823E1  -4.460800814599724E1   2.715982938066190E1  -7.079453506258377E-1  -8.079072613288495E-2  
 3.000000000000000E7    -6.703649635873461E-1   1.397136169684882  -4.409734133337005E1   3.754034595705033E1  -4.393741000399569E1   3.920728792550163E1  -6.259993360340500E-1   8.215564521810089E-1  
 4.000000000000000E7    -5.084615961539518E-1   1.690423585358113E-1  -4.241919199665303E1   4.666278295834173E1  -4.202290305385352E1   4.756884418967184E1  -4.457930409554218E-1   1.305879476673057  
 5.000000000000000E7    -4.028005689279446E-1  -2.209983615420464E-2  -4.152291238089947E1   5.144971905390273E1  -4.128569072230268E1   5.248790982356677E1  -4.002215548165030E-1  -8.927776174506347E-3  
 6.000000000000000E7    -3.426232606174219E-1  -1.710497036116216E-1  -4.031782384203515E1   5.571919097127718E1  -4.023950139610385E1   5.671188950928529E1  -3.745548023947740E-1   2.319347825701270E-1  
 7.000000000000000E7    -3.087870548477880E-1  -6.947674690356531E-1  -3.914697111952927E1   5.983344464203076E1  -3.911044941687496E1   6.052302295003124E1  -3.025602802123441E-1  -8.573572717114185E-2  
 8.000000000000000E7    -2.539788052884558E-1  -1.153680393687768  -3.828912157876771E1   6.295437960874288E1  -3.812201375405451E1   6.307056713225737E1  -2.529216584399985E-1  -2.599573406096171E-1  
 9.000000000000000E7    -2.275673275956132E-1  -1.298110166393295  -3.735393332634146E1   6.421872618894568E1  -3.715654999015271E1   6.460695589783254E1  -2.314462738429186E-1  -6.901634239687928E-1  
 1.000000000000000E8    -1.979075053811597E-1  -1.468727115643087  -3.653417155184761E1   6.630036968609349E1  -3.638422960213350E1   6.666755839617819E1  -1.981557184719024E-1  -8.394211561666458E-1  
 1.100000000000000E8    -1.929418132215033E-1  -1.787876274369622  -3.579838552282091E1   6.782209671897127E1  -3.561215970319335E1   6.763338306773123E1  -1.880396944094656E-1  -1.330457089344403  
 1.200000000000000E8    -1.582281592024161E-1  -2.073919760889949  -3.501083182143321E1   6.916984369753638E1  -3.492879075492289E1   6.880169686897747E1  -1.612044674915709E-1  -1.408778393803727  
 1.300000000000000E8    -1.315436767007440E-1  -2.423258550253869  -3.440742716336289E1   7.041532243496870E1  -3.434311558665802E1   7.023229154300660E1  -1.283515123950914E-1  -1.599182988160925  
 1.400000000000000E8    -1.224166370046623E-1  -2.666547487355875  -3.383835500418199E1   7.127723600575439E1  -3.377800212675490E1   7.129368697521124E1  -1.247595477804973E-1  -1.931773960152515  
 1.500000000000000E8    -1.125705404032983E-1  -2.880509522227148  -3.329017816933571E1   7.227537085651376E1  -3.326205980773894E1   7.244849046323057E1  -1.109349528150364E-1  -2.075776486235101  
 1.600000000000000E8    -9.970433132599066E-2  -3.265927021768774  -3.275356608539540E1   7.278191890380712E1  -3.272934652534481E1   7.286849907886570E1  -9.041527076256996E-2  -2.227094376361996  
 1.700000000000000E8    -9.190230484748134E-2  -3.419992654162776  -3.224244886687104E1   7.327462612412080E1  -3.223511175448770E1   7.336799074195594E1  -1.021539243100525E-1  -2.490970576745833  
 1.800000000000000E8    -8.877751505126352E-2  -3.656009786367457  -3.173176952682816E1   7.380015792611634E1  -3.174851083606467E1   7.378536900714983E1  -8.903886832024215E-2  -2.551333326564663  
 1.900000000000000E8    -8.985076557751900E-2  -3.898026592006240  -3.124944826978225E1   7.411009903128712E1  -3.126951223287996E1   7.391471935209043E1  -9.271066859720643E-2  -2.805924574821281  
 2.000000000000000E8    -9.623180143203265E-2  -4.087337847608579  -3.084301987970248E1   7.461885633909775E1  -3.083918195735821E1   7.444168551095687E1  -8.813675990283316E-2  -2.956274160222141  
 2.100000000000000E8    -9.140625584193723E-2  -4.291320962303503  -3.041565604741274E1   7.490592102264564E1  -3.038988708958037E1   7.494601190095868E1  -9.877377840714979E-2  -3.104847825401896  
 2.200000000000000E8    -8.289719237803188E-2  -4.625410432003965  -3.002329370674664E1   7.515948854682529E1  -2.997798017328111E1   7.509320699545371E1  -8.124826722606712E-2  -3.250365617318143  
 2.300000000000000E8    -8.521759889806628E-2  -4.753837699268531  -2.963624655974132E1   7.521684812184684E1  -2.959289775380692E1   7.524298923616671E1  -8.860762993940498E-2  -3.515638120612762  
 2.400000000000000E8    -8.625513707023132E-2  -5.020338959120140  -2.927437377782519E1   7.552861363342282E1  -2.924323222025032E1   7.537138439502216E1  -8.223871585534930E-2  -3.662013810086926  
 2.500000000000000E8    -8.146520789771670E-2  -5.269211412113696  -2.889359059019668E1   7.549344035950789E1  -2.891016338928345E1   7.545502098717967E1  -5.981352069152501E-2  -3.828107505927803  
 2.600000000000000E8    -8.060954111375690E-2  -5.525344695801553  -2.857057864445017E1   7.555848614802365E1  -2.859409883443285E1   7.547530483522998E1  -6.249810754718476E-2  -4.006674348910892  
 2.700000000000000E8    -7.079495023098853E-2  -5.766022751884998  -2.825057010003247E1   7.569545520780584E1  -2.828271134306517E1   7.545571073471078E1  -5.509612138410958E-2  -4.283021658561709  
 2.800000000000000E8    -6.263029969718034E-2  -5.964780302608374  -2.795688940954818E1   7.583921931669387E1  -2.796788539036500E1   7.580384905284294E1  -4.564091775264664E-2  -4.428351287266149  
 2.900000000000000E8    -5.848895429900528E-2  -6.231571169525036  -2.769705175514720E1   7.588741529886484E1  -2.768523224246662E1   7.602447347734582E1  -5.639657841288498E-2  -4.525123867951365  
 3.000000000000000E8    -6.518200106195045E-2  -6.426772107859410  -2.743486093251206E1   7.605394185120656E1  -2.740083152769098E1   7.614483466826086E1  -5.765337001328569E-2  -4.741525513733025  
 3.100000000000000E8    -5.556257630018372E-2  -6.739843708941803  -2.713143092777887E1   7.591807862431909E1  -2.711724299075091E1   7.608134860644901E1  -4.499734579578883E-2  -5.000752262695916  
 3.200000000000000E8    -6.340369861865090E-2  -6.998226868860974  -2.685152982900941E1   7.604771792084524E1  -2.684383169479917E1   7.598787065979869E1  -4.499595330675558E-2  -5.132329378500329  
 3.300000000000000E8    -5.789069175393065E-2  -7.194443561334897  -2.658562995306764E1   7.602508356047713E1  -2.658546970416607E1   7.608792510784282E1  -3.932727889965747E-2  -5.326674087603589  
 3.400000000000000E8    -5.190776643674122E-2  -7.413789211654005  -2.637960378652760E1   7.611721141966757E1  -2.637527040422851E1   7.613085282198932E1  -2.784289863695036E-2  -5.429595200907971  
 3.500000000000000E8    -5.386799987861505E-2  -7.629832280599760  -2.613026036150679E1   7.608221191937099E1  -2.616916001105394E1   7.594518566066382E1  -2.607217833132887E-2  -5.587200343959014  
 3.600000000000000E8    -6.042621013113213E-2  -7.816783436181661  -2.586813298222915E1   7.599482135741195E1  -2.591953726932358E1   7.601763543157817E1  -4.428531565688224E-2  -5.749864748543155  
 3.700000000000000E8    -6.042905587561673E-2  -8.076739475586690  -2.561341166180861E1   7.595003177494229E1  -2.563444014089796E1   7.592772636190853E1  -4.322165094713055E-2  -5.952715662900094  
 3.800000000000000E8    -6.016254562865640E-2  -8.332412747552374  -2.538592119774923E1   7.585022098871144E1  -2.536723506375226E1   7.587006426283239E1  -4.350698336617667E-2  -6.151993527694992  
 3.900000000000000E8    -6.380428097882764E-2  -8.604930135656153  -2.515887093224645E1   7.567542301467530E1  -2.512682397623403E1   7.578152877282120E1  -5.309785483410995E-2  -6.296946826574613  
 4.000000000000000E8    -6.184312875185154E-2  -8.852893670542365  -2.491082069903137E1   7.561630187749684E1  -2.490607945649483E1   7.562889530636294E1  -4.683083133663816E-2  -6.454370448445777  
 4.100000000000000E8    -5.912351931260009E-2  -9.120122893675603  -2.468838613371626E1   7.560867811050139E1  -2.469399892822083E1   7.549118514359114E1  -4.137382756922609E-2  -6.628427884641003  
 4.200000000000000E8    -5.707113785191707E-2  -9.365108206202853  -2.448955598635667E1   7.552939030082189E1  -2.450154875636493E1   7.547614474850960E1  -4.514382839670971E-2  -6.875960687554668  
 4.300000000000000E8    -5.487022369038564E-2  -9.565908780506902  -2.430072829963121E1   7.542830879792550E1  -2.433712068046091E1   7.546014787530586E1  -4.392110071356750E-2  -6.960106291984182  
 4.400000000000000E8    -5.532616583714153E-2  -9.757155461915541  -2.414385484365555E1   7.554554048274672E1  -2.416565486771762E1   7.541028091224189E1  -3.454007940506241E-2  -7.171112386762343  
 4.500000000000000E8    -4.812498650071068E-2  -9.913956743196653  -2.396946200262556E1   7.544783008290921E1  -2.398534806658130E1   7.539998300957183E1  -3.137499737121601E-2  -7.284974806856888  
 4.600000000000000E8    -4.687397614415937E-2  -1.009560288245877E1  -2.382019279274814E1   7.539547290040431E1  -2.381343158152381E1   7.542146067687679E1  -3.142475484181691E-2  -7.431519628680042  
 4.700000000000000E8    -4.455212240039592E-2  -1.030043548706866E1  -2.364705825049026E1   7.525906403585168E1  -2.363383543259823E1   7.531567486904420E1  -3.511613457272581E-2  -7.646671926391310  
 4.800000000000000E8    -4.630149577873875E-2  -1.053570767708701E1  -2.347358345556193E1   7.514548394199355E1  -2.345325747860186E1   7.529920740283026E1  -3.515134327000220E-2  -7.770683446159354  
 4.900000000000000E8    -4.786336043263573E-2  -1.074776093154254E1  -2.327984708659177E1   7.520350195112505E1  -2.326961752014885E1   7.511904329743821E1  -3.080819979354508E-2  -7.950214052475291  
 5.000000000000000E8    -5.101715467888242E-2  -1.096366226164473E1  -2.310192361961025E1   7.507042346733402E1  -2.310492446096849E1   7.505398049929340E1  -3.454922681141254E-2  -8.085260320574639  
 5.100000000000000E8    -5.447016589637567E-2  -1.120220504893415E1  -2.293662457563318E1   7.480415698108082E1  -2.295679374311207E1   7.472219105085760E1  -2.913133790277899E-2  -8.253186040733942  
 5.200000000000000E8    -5.692349252259363E-2  -1.138742619614253E1  -2.277737152317009E1   7.461436387496669E1  -2.280843363894588E1   7.465405391628558E1  -4.086682880293976E-2  -8.384384820816310  
 5.300000000000000E8    -5.679061528024371E-2  -1.167012278365060E1  -2.260592757884839E1   7.445743153694933E1  -2.262194100070764E1   7.449084319312320E1  -3.253232305290570E-2  -8.546785704613477  
 5.400000000000000E8    -5.917024731956916E-2  -1.190156288179888E1  -2.242486921184797E1   7.434023109022387E1  -2.244472717372736E1   7.437044611064843E1  -3.919659377974245E-2  -8.706106197218190  
 5.500000000000000E8    -6.628364829487056E-2  -1.216107785846998E1  -2.225782880667729E1   7.411175306341087E1  -2.226268709154811E1   7.414849939941259E1  -3.798920004460164E-2  -8.927523274263033  
 5.600000000000000E8    -6.488609690852527E-2  -1.240280924008089E1  -2.208802776084678E1   7.393455019140335E1  -2.209888161792651E1   7.402700774380880E1  -4.955062377268438E-2  -9.078634780308887  
 5.700000000000000E8    -6.432575478576294E-2  -1.264084375085111E1  -2.193047588890152E1   7.376311725190173E1  -2.193027190173314E1   7.382036445045596E1  -4.956954206047701E-2  -9.306326138706510  
 5.800000000000000E8    -6.398409899645030E-2  -1.289952066783027E1  -2.177961653417170E1   7.363608043645110E1  -2.178506508084110E1   7.372055001318113E1  -4.501947067611147E-2  -9.466427887280009  
 5.900000000000000E8    -6.580383095726365E-2  -1.308175565902253E1  -2.165846618152970E1   7.354942189597993E1  -2.166096023664015E1   7.362817254309350E1  -4.678875652438616E-2  -9.643555758488780  
 6.000000000000000E8    -6.208169707585662E-2  -1.328801880420677E1  -2.154776769562631E1   7.349329068290226E1  -2.155286554859323E1   7.355830335316570E1  -4.806862725923277E-2  -9.782718957923214  
 6.100000000000000E8    -6.180924776039623E-2  -1.351960902852940E1  -2.144317092315556E1   7.336219918345671E1  -2.144349245141009E1   7.339819118500260E1  -4.433337513214303E-2  -9.975772198770541  
 6.200000000000000E8    -6.062264109274415E-2  -1.368551953634463E1  -2.133868806434142E1   7.326254227158478E1  -2.134383105761581E1   7.337957294678743E1  -4.707117048606881E-2  -1.012570355132842E1  
 6.300000000000000E8    -6.170243386869821E-2  -1.390299902072331E1  -2.123545153412437E1   7.315926186758958E1  -2.124420256922838E1   7.320382664318154E1  -5.285369400405741E-2  -1.030123231885950E1  
 6.400000000000000E8    -6.178367996169150E-2  -1.410248883556257E1  -2.110515568941922E1   7.301784101055446E1  -2.110777457791146E1   7.307340841283572E1  -5.217229341078336E-2  -1.047166064064450E1  
 6.500000000000000E8    -6.153385463935414E-2  -1.432243736625735E1  -2.096775878832391E1   7.296773310343056E1  -2.097675843325554E1   7.287194589229395E1  -5.526675965502419E-2  -1.066061640019916E1  
 6.600000000000000E8    -5.994162734157951E-2  -1.448737499432800E1  -2.083203799819822E1   7.288899778789087E1  -2.082760894830537E1   7.275556899884202E1  -5.797035270598697E-2  -1.082379735071086E1  
 6.700000000000000E8    -6.267295808090118E-2  -1.467522797245416E1  -2.070241800536807E1   7.274668991764233E1  -2.069170313413925E1   7.263562374754066E1  -5.634354125196047E-2  -1.098888901857635E1  
 6.800000000000000E8    -6.284193132102443E-2  -1.485491356657684E1  -2.056518754578567E1   7.246587579862205E1  -2.055935343499605E1   7.247326786033415E1  -5.988117074920353E-2  -1.117787725739827E1  
 6.900000000000000E8    -7.344628431633911E-2  -1.505410500865043E1  -2.044131960403690E1   7.234448053926032E1  -2.043495541327185E1   7.230098323484984E1  -6.411888990205580E-2  -1.134131134206830E1  
 7.000000000000000E8    -7.213736478991341E-2  -1.524894518837533E1  -2.030248357273183E1   7.216949876294314E1  -2.031018510772419E1   7.212659575873994E1  -6.108677982202836E-2  -1.149407283169585E1  
 7.100000000000000E8    -7.275221462284241E-2  -1.543183421048399E1  -2.018126775836732E1   7.206615115242656E1  -2.019025337420642E1   7.193862606926167E1  -6.673537564677742E-2  -1.168078756852753E1  
 7.200000000000000E8    -7.241968610518633E-2  -1.567224627034089E1  -2.004379747209839E1   7.188784919593208E1  -2.006718452409595E1   7.176697652672468E1  -6.894328506692495E-2  -1.184271286512730E1  
 7.300000000000000E8    -7.592124614898495E-2  -1.587806943618420E1  -1.994023307858014E1   7.183760309215386E1  -1.994184662250564E1   7.170095248705431E1  -7.099064819797901E-2  -1.200425412272306E1  
 7.400000000000000E8    -7.660761964395076E-2  -1.610726225110921E1  -1.984169376844809E1   7.160827665687668E1  -1.983584893455177E1   7.147418974513005E1  -7.533458957575849E-2  -1.222160778425439E1  
 7.500000000000000E8    -8.026132588290433E-2  -1.630933481010457E1  -1.974789305937103E1   7.137199256742834E1  -1.972908272035680E1   7.139826955568864E1  -7.223799010512516E-2  -1.237160683348850E1  
 7.600000000000000E8    -7.961681640397238E-2  -1.652268460984229E1  -1.964984947338690E1   7.127849562674197E1  -1.963150636024121E1   7.131420548924763E1  -7.282762917717642E-2  -1.252441899112294E1  
 7.700000000000000E8    -8.101196748058279E-2  -1.673984494779193E1  -1.955377998781390E1   7.109318495591347E1  -1.953701137615906E1   7.117577941855416E1  -7.071715396596026E-2  -1.269949621652927E1  
 7.800000000000000E8    -8.030491069080820E-2  -1.693958708602710E1  -1.946011088582888E1   7.097571302801582E1  -1.946218104789445E1   7.106381327706279E1  -7.310234632773000E-2  -1.282881993710287E1  
 7.900000000000000E8    -7.863267946579268E-2  -1.713604054958950E1  -1.936506516356245E1   7.080573819031028E1  -1.937899682773013E1   7.089324007878396E1  -7.364575756443617E-2  -1.298304003947179E1  
 8.000000000000000E8    -8.711580289990369E-2  -1.737426714833494E1  -1.928080413667396E1   7.062024753310928E1  -1.930275702623248E1   7.070853546857902E1  -7.677512196141360E-2  -1.314163222428092E1  
 8.100000000000000E8    -8.816823816956507E-2  -1.754695091680659E1  -1.918609534491908E1   7.054638936997438E1  -1.919999192969405E1   7.055388089386322E1  -7.670074089119279E-2  -1.330185862400614E1  
 8.200000000000000E8    -8.545835238817032E-2  -1.773845964608669E1  -1.909959296218851E1   7.046075341383526E1  -1.908688347521059E1   7.043806567483102E1  -7.968994089691250E-2  -1.348232791812664E1  
 8.300000000000000E8    -9.159886936178645E-2  -1.794328132905231E1  -1.900123562692080E1   7.020405101045810E1  -1.896734545994333E1   7.025990828879240E1  -7.550407794463127E-2  -1.366581866854697E1  
 8.400000000000000E8    -9.209096822427773E-2  -1.810758223254874E1  -1.889447894358232E1   7.020199724882815E1  -1.886105500967580E1   7.009755720621945E1  -8.756858340373404E-2  -1.383517254777494E1  
 8.500000000000000E8    -9.816058619020529E-2  -1.829712350961176E1  -1.877612704277839E1   6.995076315555829E1  -1.875743791847546E1   6.993683100146370E1  -8.980143662176743E-2  -1.399979403437672E1  
 8.600000000000000E8    -1.028240825243714E-1  -1.850781692109263E1  -1.865553646307948E1   6.977362174706049E1  -1.865549424390754E1   6.973791031220597E1  -8.778522969178958E-2  -1.416241217031319E1  
 8.700000000000000E8    -1.004765371038526E-1  -1.869962920172513E1  -1.854223244222097E1   6.953474397066256E1  -1.856486514197415E1   6.951233179774944E1  -9.348677228498396E-2  -1.433779473062895E1  
 8.800000000000000E8    -1.061055549150626E-1  -1.887284868433090E1  -1.845593405877864E1   6.946200159279114E1  -1.849313415155820E1   6.943318028976438E1  -9.980643726595945E-2  -1.447224705741567E1  
 8.900000000000000E8    -1.028240414474237E-1  -1.904322296177453E1  -1.836920296052927E1   6.929513276403192E1  -1.839931993457083E1   6.926619876132894E1  -9.870378133662641E-2  -1.463965246921614E1  
 9.000000000000000E8    -1.052405034907994E-1  -1.921403528105743E1  -1.830783644401808E1   6.919757983845810E1  -1.831473694348976E1   6.919762321014362E1  -1.014027554050952E-1  -1.477590115655703E1  
 9.100000000000000E8    -1.053374613876280E-1  -1.939440174188402E1  -1.824563290922716E1   6.912890643209254E1  -1.822414333475843E1   6.905628234479237E1  -1.011416886184293E-1  -1.498088274145579E1  
 9.200000000000000E8    -1.057821107106700E-1  -1.958929406415027E1  -1.818263741091148E1   6.910415082381898E1  -1.813293504755633E1   6.891616031176140E1  -1.021426640330156E-1  -1.514446938933050E1  
 9.300000000000000E8    -1.068158713379475E-1  -1.976238663557886E1  -1.809686913745212E1   6.895281740232070E1  -1.805341135586971E1   6.878985882400127E1  -1.008979316621202E-1  -1.528678171417641E1  
 9.400000000000000E8    -1.093447405982420E-1  -1.998310020843276E1  -1.799983393038798E1   6.880714515915747E1  -1.798493499907370E1   6.859166765919284E1  -9.901261056518707E-2  -1.545644244644281E1  
 9.500000000000000E8    -1.105123847760662E-1  -2.018179295966480E1  -1.791110392780215E1   6.854360670933558E1  -1.792290983878841E1   6.839994758152740E1  -9.960792709488028E-2  -1.558199987238179E1  
 9.600000000000000E8    -1.135261748936406E-1  -2.036704718769147E1  -1.783479054713441E1   6.836232594169205E1  -1.786762825400570E1   6.827980055491616E1  -1.005882534844441E-1  -1.571399899835432E1  
 9.700000000000000E8    -1.113499415456962E-1  -2.057141612489977E1  -1.775696692248354E1   6.820022637805812E1  -1.780055914119706E1   6.815010409100096E1  -1.009537288212745E-1  -1.586444389408948E1  
 9.800000000000000E8    -1.134772213190283E-1  -2.073800281986885E1  -1.768971637063216E1   6.805377378589955E1  -1.771895792373332E1   6.801060457701641E1  -1.036449388869712E-1  -1.603796333965645E1  
