#  HZ   S   DB   R     50.00 
! Rohde & Schwarz ZVA24 4Ports - Version 2.90 - 1145.1110k26 SN: 100216
! Date: 2012-03-15 14:47:33
! Measurement: S11 
! 
 1.000000000000000E7    -7.629862336166060E-1   7.276090357842414E-1  
 2.000000000000000E7    -8.153456464106705E-1   2.211476781319393E-1  
 3.000000000000000E7    -6.942723825916803E-1   1.573121541470805  
 4.000000000000000E7    -4.841983107897193E-1   3.023404728729288E-1  
 5.000000000000000E7    -4.622042377173788E-1   1.790183347531676E-1  
 6.000000000000000E7    -3.232498950865030E-1  -1.472919417645791E-1  
 7.000000000000000E7    -3.068638726482988E-1  -6.222196090752984E-1  
 8.000000000000000E7    -2.761643617872289E-1  -1.094280521337979  
 9.000000000000000E7    -2.350029470566931E-1  -1.214567010681228  
 1.000000000000000E8    -1.865658689180970E-1  -1.184259370031241  
 1.100000000000000E8    -1.829432765394738E-1  -1.744936887108916  
 1.200000000000000E8    -1.674225731861331E-1  -2.031576743979425  
 1.300000000000000E8    -1.467898433880900E-1  -2.340288780713151  
 1.400000000000000E8    -1.330069333934840E-1  -2.699720888631865  
 1.500000000000000E8    -1.245801801357676E-1  -2.766246101630782  
 1.600000000000000E8    -1.104859112729494E-1  -3.235063796815433  
 1.700000000000000E8    -9.722322839947598E-2  -3.473290928307799  
 1.800000000000000E8    -1.065503555052353E-1  -3.611152951938040  
 1.900000000000000E8    -1.066412970703066E-1  -3.891639055659036  
 2.000000000000000E8    -1.054874616108935E-1  -4.079088575518905  
 2.100000000000000E8    -9.961504230755926E-2  -4.330812279893824  
 2.200000000000000E8    -1.014732641629790E-1  -4.618347879551468  
 2.300000000000000E8    -1.054024955176547E-1  -4.732126218081619  
 2.400000000000000E8    -9.963994886737203E-2  -5.020030525849432  
 2.500000000000000E8    -9.927144574414608E-2  -5.313736338564072  
 2.600000000000000E8    -9.092739453263528E-2  -5.643098125500120  
 2.700000000000000E8    -8.376100259632122E-2  -5.822918222155583  
 2.800000000000000E8    -7.824661936091643E-2  -6.024005280931727  
 2.900000000000000E8    -6.749921770152423E-2  -6.345900871562007  
 3.000000000000000E8    -7.624853607481026E-2  -6.555827528494270  
 3.100000000000000E8    -6.543448286704312E-2  -6.791984087269706  
 3.200000000000000E8    -7.055149520191888E-2  -7.088959353670223  
 3.300000000000000E8    -6.755974019574632E-2  -7.318030942075271  
 3.400000000000000E8    -5.994226385144532E-2  -7.564093598512832  
 3.500000000000000E8    -6.211486033945556E-2  -7.745663587519470  
 3.600000000000000E8    -7.115593744023861E-2  -7.953069295269011  
 3.700000000000000E8    -6.599781228295384E-2  -8.220556931733333  
 3.800000000000000E8    -6.705777827048469E-2  -8.458798238276973  
 3.900000000000000E8    -6.519134586019254E-2  -8.736876641999384  
 4.000000000000000E8    -6.813966548002844E-2  -8.975545454708357  
 4.100000000000000E8    -6.712153046231169E-2  -9.262356214173577  
 4.200000000000000E8    -6.626403910458570E-2  -9.536374126916771  
 4.300000000000000E8    -5.630477985602082E-2  -9.713358990877085  
 4.400000000000000E8    -5.814223784150230E-2  -9.903410082749527  
 4.500000000000000E8    -4.659444099503170E-2  -1.004825897431016E1  
 4.600000000000000E8    -5.237610685304441E-2  -1.023421221484351E1  
 4.700000000000000E8    -4.475132902607306E-2  -1.044536645539449E1  
 4.800000000000000E8    -5.242891314177681E-2  -1.067269328298699E1  
 4.900000000000000E8    -4.485893950972680E-2  -1.090503026372863E1  
 5.000000000000000E8    -5.031795848235759E-2  -1.110980561603557E1  
 5.100000000000000E8    -4.812011052285333E-2  -1.138003555094207E1  
 5.200000000000000E8    -5.640161533915147E-2  -1.157295513884962E1  
 5.300000000000000E8    -5.194621706659716E-2  -1.183796945747957E1  
 5.400000000000000E8    -5.307545944028196E-2  -1.207036765546341E1  
 5.500000000000000E8    -6.064985062081538E-2  -1.235145487120356E1  
 5.600000000000000E8    -5.914207260521910E-2  -1.259236606682268E1  
 5.700000000000000E8    -5.637435445180285E-2  -1.281632746163062E1  
 5.800000000000000E8    -5.360411762781130E-2  -1.311084067733227E1  
 5.900000000000000E8    -5.746595215912252E-2  -1.329855422100458E1  
 6.000000000000000E8    -5.110396169355502E-2  -1.350829543257706E1  
 6.100000000000000E8    -5.010416680740567E-2  -1.371415650526950E1  
 6.200000000000000E8    -4.744919705291319E-2  -1.388501893569358E1  
 6.300000000000000E8    -4.647154593663604E-2  -1.409772544338083E1  
 6.400000000000000E8    -4.642313169388506E-2  -1.428721936266787E1  
 6.500000000000000E8    -4.242936453084385E-2  -1.449061146396000E1  
 6.600000000000000E8    -4.167263780223918E-2  -1.467186000805089E1  
 6.700000000000000E8    -4.020101597141935E-2  -1.487519041920727E1  
 6.800000000000000E8    -4.137182864351074E-2  -1.503283566859523E1  
 6.900000000000000E8    -5.243673779040715E-2  -1.523312911728554E1  
 7.000000000000000E8    -5.100843190280800E-2  -1.543241698955177E1  
 7.100000000000000E8    -5.082005961556119E-2  -1.563197333501274E1  
 7.200000000000000E8    -4.860947461408405E-2  -1.586623516589641E1  
 7.300000000000000E8    -4.874422856581057E-2  -1.607091228219150E1  
 7.400000000000000E8    -5.089843136652440E-2  -1.628616402647088E1  
 7.500000000000000E8    -5.251079046377523E-2  -1.649022827435164E1  
 7.600000000000000E8    -5.148658477565443E-2  -1.668900648731245E1  
 7.700000000000000E8    -5.325996295281028E-2  -1.694686357011794E1  
 7.800000000000000E8    -5.179326568607056E-2  -1.712343373715295E1  
 7.900000000000000E8    -4.896121386225626E-2  -1.732215084651300E1  
 8.000000000000000E8    -5.346630037495981E-2  -1.753650079490612E1  
 8.100000000000000E8    -5.456360573939380E-2  -1.771156686222284E1  
 8.200000000000000E8    -4.681605276348546E-2  -1.788359971512343E1  
 8.300000000000000E8    -5.582228568307212E-2  -1.809009505583521E1  
 8.400000000000000E8    -5.499670910661138E-2  -1.826448881710941E1  
 8.500000000000000E8    -5.974152258139563E-2  -1.844852159775775E1  
 8.600000000000000E8    -6.313105106335179E-2  -1.864891664572077E1  
 8.700000000000000E8    -6.131093765668896E-2  -1.884253045988439E1  
 8.800000000000000E8    -6.348421142043467E-2  -1.900492274789932E1  
 8.900000000000000E8    -5.912110450861433E-2  -1.917405416777026E1  
 9.000000000000000E8    -6.092345363673132E-2  -1.933265441855870E1  
 9.100000000000000E8    -6.128252015175596E-2  -1.952802129554350E1  
 9.200000000000000E8    -5.930607713348456E-2  -1.974533135500732E1  
 9.300000000000000E8    -5.982653578421480E-2  -1.991006179536915E1  
 9.400000000000000E8    -6.073769772958848E-2  -2.013220051959308E1  
 9.500000000000000E8    -6.203960385813306E-2  -2.033472113977330E1  
 9.600000000000000E8    -6.617972931395119E-2  -2.053057965363014E1  
 9.700000000000000E8    -6.170204071964468E-2  -2.071794689417314E1  
 9.800000000000000E8    -6.306679638063556E-2  -2.088262720901872E1  
 9.900000000000000E8    -6.528037341784496E-2  -2.104861151876072E1  
 1.000000000000000E9    -6.757859525924091E-2  -2.124323085771272E1  
 1.010000000000000E9    -6.949481757880761E-2  -2.141435344453472E1  
 1.020000000000000E9    -7.838428044149784E-2  -2.162006226416794E1  
 1.030000000000000E9    -8.368394317267473E-2  -2.179468254560275E1  
 1.040000000000000E9    -8.418174478213464E-2  -2.199262156706510E1  
 1.050000000000000E9    -8.933768096065069E-2  -2.214587732512485E1  
 1.060000000000000E9    -8.696109290715191E-2  -2.229821338087830E1  
 1.070000000000000E9    -8.805156291612505E-2  -2.245410000914612E1  
 1.080000000000000E9    -8.268286042591556E-2  -2.260970408335984E1  
 1.090000000000000E9    -8.313074610752477E-2  -2.274992440298773E1  
 1.100000000000000E9    -7.999707220198923E-2  -2.292589514302731E1  
 1.110000000000000E9    -7.805966624588873E-2  -2.308997677444746E1  
 1.120000000000000E9    -7.652857774796368E-2  -2.327827018901990E1  
 1.130000000000000E9    -7.884042529344389E-2  -2.344348424751313E1  
 1.140000000000000E9    -7.728964165161778E-2  -2.360575069903601E1  
 1.150000000000000E9    -8.083645593690038E-2  -2.375865601483504E1  
 1.160000000000000E9    -7.862664588694300E-2  -2.392901327030450E1  
 1.170000000000000E9    -8.613984886627092E-2  -2.411042970186945E1  
 1.180000000000000E9    -8.740112720623013E-2  -2.424167554181575E1  
 1.190000000000000E9    -9.248174249403210E-2  -2.441010886553642E1  
 1.200000000000000E9    -9.558586861323049E-2  -2.454450357546982E1  
 1.210000000000000E9    -9.217288262178920E-2  -2.470226165821782E1  
 1.220000000000000E9    -9.517953054337915E-2  -2.481031952564410E1  
 1.230000000000000E9    -9.407502980707551E-2  -2.495480967779458E1  
 1.240000000000000E9    -9.236628372382492E-2  -2.509617658912254E1  
 1.250000000000000E9    -8.966876933371963E-2  -2.528348068776040E1  
 1.260000000000000E9    -9.342017824155510E-2  -2.545290259808089E1  
 1.270000000000000E9    -9.081881931173164E-2  -2.565984472265977E1  
 1.280000000000000E9    -8.787615527061141E-2  -2.583712669675709E1  
 1.290000000000000E9    -8.878359457073654E-2  -2.602105692866726E1  
 1.300000000000000E9    -8.939734695945031E-2  -2.619856856182028E1  
 1.310000000000000E9    -8.013144672510568E-2  -2.634731436494324E1  
 1.320000000000000E9    -8.460517965302518E-2  -2.651986944658676E1  
 1.330000000000000E9    -8.305596887994406E-2  -2.671129082938553E1  
 1.340000000000000E9    -8.838011177084777E-2  -2.690275123968799E1  
 1.350000000000000E9    -9.530525155774750E-2  -2.709350063538527E1  
 1.360000000000000E9    -9.385133355089705E-2  -2.727179927782422E1  
 1.370000000000000E9    -9.692357762866706E-2  -2.741493044002922E1  
 1.380000000000000E9    -9.453809904352224E-2  -2.753360714076262E1  
 1.390000000000000E9    -9.545682251446570E-2  -2.766780355416374E1  
 1.400000000000000E9    -9.520237883648640E-2  -2.774038663690164E1  
 1.410000000000000E9    -9.509471457889381E-2  -2.787790186042152E1  
 1.420000000000000E9    -9.137889391195973E-2  -2.801290907125907E1  
 1.430000000000000E9    -9.236779333585456E-2  -2.813110500276549E1  
 1.440000000000000E9    -8.936265999688522E-2  -2.828471056177521E1  
 1.450000000000000E9    -9.079273924904967E-2  -2.842030658337361E1  
 1.460000000000000E9    -9.167046914213410E-2  -2.855152131658324E1  
 1.470000000000000E9    -9.281279323832530E-2  -2.869891172854798E1  
 1.480000000000000E9    -9.648421241391729E-2  -2.889221910537705E1  
 1.490000000000000E9    -9.962897822001483E-2  -2.912280813388025E1  
 1.500000000000000E9    -1.006671440329423E-1  -2.934306634182794E1  
 1.510000000000000E9    -1.061859797240121E-1  -2.954476878686949E1  
 1.520000000000000E9    -1.073838388181442E-1  -2.972738113887865E1  
 1.530000000000000E9    -1.125288641842861E-1  -2.987869923903378E1  
 1.540000000000000E9    -1.087924809874731E-1  -3.002282500784861E1  
 1.550000000000000E9    -1.081297046286140E-1  -3.015384318725321E1  
 1.560000000000000E9    -1.105605258207615E-1  -3.031177135681551E1  
 1.570000000000000E9    -1.104643911905010E-1  -3.048277658666957E1  
 1.580000000000000E9    -1.103767990688209E-1  -3.066981754309666E1  
 1.590000000000000E9    -1.091028943656412E-1  -3.084249512276698E1  
 1.600000000000000E9    -1.089284669131471E-1  -3.096918005214959E1  
 1.610000000000000E9    -1.085370864459993E-1  -3.107857483142199E1  
 1.620000000000000E9    -1.103205160038118E-1  -3.117451964010990E1  
 1.630000000000000E9    -1.106130251665706E-1  -3.127875026767048E1  
 1.640000000000000E9    -1.124411543487940E-1  -3.140079233099820E1  
 1.650000000000000E9    -1.151007933622014E-1  -3.156330938756457E1  
 1.660000000000000E9    -1.128110091699952E-1  -3.175841839377638E1  
 1.670000000000000E9    -1.200161780190042E-1  -3.194587930945354E1  
 1.680000000000000E9    -1.178218174930783E-1  -3.210612299128665E1  
 1.690000000000000E9    -1.259929424288328E-1  -3.226611287591776E1  
 1.700000000000000E9    -1.322360225242273E-1  -3.241225904768425E1  
 1.710000000000000E9    -1.342821419638038E-1  -3.254586252072277E1  
 1.720000000000000E9    -1.296469935798320E-1  -3.267290656756383E1  
 1.730000000000000E9    -1.339115079873868E-1  -3.283178914103529E1  
 1.740000000000000E9    -1.300178349584752E-1  -3.299467207888164E1  
 1.750000000000000E9    -1.320672322522320E-1  -3.314267846280738E1  
 1.760000000000000E9    -1.315719316269275E-1  -3.325197894820636E1  
 1.770000000000000E9    -1.306804590305290E-1  -3.332881628880774E1  
 1.780000000000000E9    -1.289441551643042E-1  -3.336682839756700E1  
 1.790000000000000E9    -1.297198081392710E-1  -3.342241761740696E1  
 1.800000000000000E9    -1.297784868882428E-1  -3.352501408848532E1  
 1.810000000000000E9    -1.309868350830490E-1  -3.366195814512282E1  
 1.820000000000000E9    -1.347268680791433E-1  -3.385739089075801E1  
 1.830000000000000E9    -1.348965214270317E-1  -3.401075219052838E1  
 1.840000000000000E9    -1.377049034465556E-1  -3.413542288437129E1  
 1.850000000000000E9    -1.343091688893790E-1  -3.423454120317213E1  
 1.860000000000000E9    -1.349562505342505E-1  -3.429399078823944E1  
 1.870000000000000E9    -1.302495598372057E-1  -3.437459224015717E1  
 1.880000000000000E9    -1.351222533212363E-1  -3.446272361418895E1  
 1.890000000000000E9    -1.317655930475483E-1  -3.458949791853449E1  
 1.900000000000000E9    -1.324739222519823E-1  -3.471435956446405E1  
 1.910000000000000E9    -1.330616190163945E-1  -3.482846740317313E1  
 1.920000000000000E9    -1.303527423308083E-1  -3.493106842620990E1  
 1.930000000000000E9    -1.310193516207773E-1  -3.499897828024599E1  
 1.940000000000000E9    -1.309294106763540E-1  -3.503241819430593E1  
 1.950000000000000E9    -1.273273070573410E-1  -3.505837443434585E1  
 1.960000000000000E9    -1.254797617111342E-1  -3.513295260044791E1  
 1.970000000000000E9    -1.246877343192273E-1  -3.522849678975751E1  
 1.980000000000000E9    -1.264240920503260E-1  -3.537672251898280E1  
 1.990000000000000E9    -1.207887641526290E-1  -3.550849366478005E1  
 2.000000000000000E9    -1.175417451075609E-1  -3.561739444651605E1  
 2.010000000000000E9    -1.159618960370068E-1  -3.573206939986116E1  
 2.020000000000000E9    -1.182202481674490E-1  -3.582240057781846E1  
 2.030000000000000E9    -1.133534132603832E-1  -3.593515969930856E1  
 2.040000000000000E9    -1.098847458152353E-1  -3.604354287012082E1  
 2.050000000000000E9    -1.077941935818323E-1  -3.618517061800259E1  
 2.060000000000000E9    -1.073807518785515E-1  -3.632986232053638E1  
 2.070000000000000E9    -1.092541891804925E-1  -3.644836559547566E1  
 2.080000000000000E9    -1.081213151575971E-1  -3.651431831356938E1  
 2.090000000000000E9    -1.076174988423104E-1  -3.654697217303429E1  
 2.100000000000000E9    -1.058701665981014E-1  -3.650990919749646E1  
 2.110000000000000E9    -1.036043492499634E-1  -3.648945710778062E1  
 2.120000000000000E9    -1.000698920806582E-1  -3.648769147518171E1  
 2.130000000000000E9    -1.023164558349599E-1  -3.656253124524008E1  
 2.140000000000000E9    -1.021319567012279E-1  -3.668353738925277E1  
 2.150000000000000E9    -1.078028814155607E-1  -3.684029164320810E1  
 2.160000000000000E9    -1.091654498425508E-1  -3.694765790580458E1  
 2.170000000000000E9    -1.126117686790241E-1  -3.703286590956816E1  
 2.180000000000000E9    -1.131911298185334E-1  -3.710940791018817E1  
 2.190000000000000E9    -1.146910416040193E-1  -3.718532266715118E1  
 2.200000000000000E9    -1.164274755592460E-1  -3.728402844559830E1  
 2.210000000000000E9    -1.122734024868014E-1  -3.740776077159875E1  
 2.220000000000000E9    -1.127146851778082E-1  -3.752479935483186E1  
 2.230000000000000E9    -1.134421371199263E-1  -3.765804993312307E1  
 2.240000000000000E9    -1.118752178800373E-1  -3.775135539803665E1  
 2.250000000000000E9    -1.135799995842373E-1  -3.781801937561399E1  
 2.260000000000000E9    -1.127134642670420E-1  -3.784218052892669E1  
 2.270000000000000E9    -1.135369012869182E-1  -3.791031219366950E1  
 2.280000000000000E9    -1.147215689426778E-1  -3.799866610274394E1  
 2.290000000000000E9    -1.176494353748429E-1  -3.814991827470492E1  
 2.300000000000000E9    -1.194548330109545E-1  -3.831502822771705E1  
 2.310000000000000E9    -1.241641581722412E-1  -3.846487007368748E1  
 2.320000000000000E9    -1.295579232883183E-1  -3.859212873054269E1  
 2.330000000000000E9    -1.370076103397794E-1  -3.869008145061959E1  
 2.340000000000000E9    -1.382134505521983E-1  -3.874635015215252E1  
 2.350000000000000E9    -1.433524758734118E-1  -3.885178382560650E1  
 2.360000000000000E9    -1.467169967865683E-1  -3.898255571477153E1  
 2.370000000000000E9    -1.485264487963752E-1  -3.915048120442325E1  
 2.380000000000000E9    -1.461451863836247E-1  -3.932870064925375E1  
 2.390000000000000E9    -1.494881330760034E-1  -3.947899789792815E1  
 2.400000000000000E9    -1.494588140383639E-1  -3.959905468814517E1  
 2.410000000000000E9    -1.489032590663275E-1  -3.965585383061117E1  
 2.420000000000000E9    -1.461634924076022E-1  -3.967085469398575E1  
 2.430000000000000E9    -1.456882567119540E-1  -3.967313535710247E1  
 2.440000000000000E9    -1.462116596520165E-1  -3.971453542186021E1  
 2.450000000000000E9    -1.481189992087736E-1  -3.984507107672134E1  
 2.460000000000000E9    -1.477013504685943E-1  -4.007491047582147E1  
 2.470000000000000E9    -1.525697982648446E-1  -4.033654842642946E1  
 2.480000000000000E9    -1.597092363409324E-1  -4.054850127062834E1  
 2.490000000000000E9    -1.602779021391563E-1  -4.066819191630491E1  
 2.500000000000000E9    -1.652809899592834E-1  -4.077542140791446E1  
 2.510000000000000E9    -1.679972772407381E-1  -4.083592284675880E1  
 2.520000000000000E9    -1.747318046574284E-1  -4.095173790568018E1  
 2.530000000000000E9    -1.710770925115390E-1  -4.104826941059513E1  
 2.540000000000000E9    -1.752357635591907E-1  -4.118674069714904E1  
 2.550000000000000E9    -1.697368898188410E-1  -4.129695854869375E1  
 2.560000000000000E9    -1.692093371896689E-1  -4.137138801225758E1  
 2.570000000000000E9    -1.686763618367337E-1  -4.139033884600294E1  
 2.580000000000000E9    -1.633258014171980E-1  -4.135239893409340E1  
 2.590000000000000E9    -1.588262659701315E-1  -4.127657229653957E1  
 2.600000000000000E9    -1.563706604174179E-1  -4.122521293441790E1  
 2.610000000000000E9    -1.503492770980802E-1  -4.124816876059639E1  
 2.620000000000000E9    -1.519531210482141E-1  -4.138857627960429E1  
 2.630000000000000E9    -1.518309099675985E-1  -4.159508146949078E1  
 2.640000000000000E9    -1.459036039043065E-1  -4.178002074176572E1  
 2.650000000000000E9    -1.479053644640160E-1  -4.196528023688894E1  
 2.660000000000000E9    -1.495218446564147E-1  -4.204181311048093E1  
 2.670000000000000E9    -1.557808809256054E-1  -4.214116052152789E1  
 2.680000000000000E9    -1.575036460439654E-1  -4.222627158888033E1  
 2.690000000000000E9    -1.495577695721594E-1  -4.229731600254446E1  
 2.700000000000000E9    -1.467670514063535E-1  -4.241500593742774E1  
 2.710000000000000E9    -1.424016948562535E-1  -4.251783478950213E1  
 2.720000000000000E9    -1.430494737627868E-1  -4.260009133531737E1  
 2.730000000000000E9    -1.363228763876587E-1  -4.262757507750401E1  
 2.740000000000000E9    -1.303409782704587E-1  -4.260739665997919E1  
 2.750000000000000E9    -1.280899134897053E-1  -4.257616093857065E1  
 2.760000000000000E9    -1.231936270301601E-1  -4.258407418552849E1  
 2.770000000000000E9    -1.181835473345224E-1  -4.265941566973231E1  
 2.780000000000000E9    -1.176845242234291E-1  -4.279789926513712E1  
 2.790000000000000E9    -1.173808725408316E-1  -4.299169420027977E1  
 2.800000000000000E9    -1.174057465555308E-1  -4.316957124107672E1  
 2.810000000000000E9    -1.191881677704085E-1  -4.329604986530440E1  
 2.820000000000000E9    -1.225157052493111E-1  -4.341519522763598E1  
 2.830000000000000E9    -1.212147419918126E-1  -4.350626896962989E1  
 2.840000000000000E9    -1.188372764388718E-1  -4.364315784217201E1  
